{
  "registers": [
    {
      "read_address": 4536,
      "write_address": 5017,
      "name": "Charger source priority",
      "bytes": 2,
      "description": "SNU: Utility or Solar/default (01), CSO: Solar First (00), OSO: Only Solar (02) ",
      "commands": {
        "SNU": "05 06 13 99 00 01 9D 25",
        "CSO": "05 06 13 99 00 00 DD 24",
        "OSO": "05 06 13 99 00 02 1C E4"
      }
    },
    {
      "read_address": 4537,
      "write_address": 5018,
      "name": "Output Source priority",
      "bytes": 2,
      "description": "USB: Utility First (00), SUB: Solar first/default (01), SBU: SBU priority (02)", 
      "commands": {
        "USB": "05 06 13 9A 00 00 AC E5",
        "SUB": "05 06 13 9A 00 01 6D 25",
        "SBU": "05 06 13 9A 00 02 2D 24"
      }
    },
    {
      "read_address": 4538,
      "write_address": 5019,
      "name": "AC input range",
      "bytes": 2,
      "description": "APL(00) Appliance/default (90-280VAC), UPS(01) (170-280VAC) ",
      "commands": {
        "APL": "05 06 13 9B 00 00 FD 25",
        "UPS": "05 06 13 9B 00 01 3C E5"
      }
    },
    {
      "read_address": 4539,
      "write_address": 5020,
      "name": "Battery type",
      "bytes": 2,
      "description": "AGn: AGM/default(00), FLD: Flooded(01), USE: User-defined(02) 3: LIB : User-defined (Solar exists)(03)",
      "commands": {
        "AGn": "05 06 13 9C 00 00 4C E4",
        "FLD": "05 06 13 9C 00 01 8D 24",
        "USE": "05 06 13 9C 00 02 CD 25",
        "LIB": "05 06 13 9C 00 03 68 A7"
      }
    },
    {
      "read_address": 4540,
      "write_address": 5021,
      "name": "Output Frequency",
      "bytes": 2,
      "description": "50: 50Hz/default (01), 60: 60Hz (00) ",
      "commands": {
        "50": "05 06 13 9D 00 01 DC E4",
        "60": "05 06 13 9D 00 00 1D 24"
      }
    },
    {
      "read_address": 4541,
      "write_address": 5022,
      "name": "Max total charge current",
      "bytes": 2,
      "description": "10-120 (A), Default: 60A",
      "commands": {
        "10": "05 06 13 9E 00 0A 6D 23",
		"20": "05 06 13 9E 00 14 ED 2B",
		"30": "05 06 13 9E 00 1E 6D 2C",
		"40": "05 06 13 9E 00 28 ED 3A",
		"50": "05 06 13 9E 00 32 6C F1",
		"60": "05 06 13 9E 00 3C ED 35",
		"70": "05 06 13 9E 00 46 6C D6",
		"80": "05 06 13 9E 00 50 ED 18",
		"90": "05 06 13 9E 00 5A 6C D2",
		"100": "05 06 13 9E 00 64 EC 60",
		"110": "05 06 13 9E 00 6E 6C C6",
		"120": "05 06 13 9E 00 78 EC 50"
      }
    },
    {
      "read_address": 4542,
      "write_address": 5023,
      "name": "Output voltage",
      "bytes": 2,
      "description": "220(22.0V)/230 (default)/240 V.",
      "scale": 0.1,
      "commands": {
        "220": "05 06 13 9F 00 DC BD 7D",
        "230": "05 06 13 9F 00 E6 3D 6E",
        "240": "05 06 13 9F 00 F0 BC A0"
      }
    },
    {
      "read_address": 4543,
      "write_address": 5024,
      "name": "Max utility charge current",
      "bytes": 2,
      "description": "2-100 (A), Default: 30A."
    },
    {
      "read_address": 4544,
      "write_address": 5025,
      "name": "Comeback utility mode voltage (SBU)",
      "bytes": 2,
      "description": "24V Battery: 210-255 (21.0V-25.5V); 48V Battery: 420-510 (42.0V-51.0V); Default: 230 (24V) / 460 (48V)",
      "scale": 0.1
    },
    {
      "read_address": 4545,
      "write_address": 5026,
      "name": "Comeback battery mode voltage (SBU)",
      "bytes": 2,
      "description": "24V: 240-290, 48V: 480-600; 0 indicates float charge entry",
      "scale": 0.1
    },
    {
      "read_address": 4546,
      "write_address": 5027,
      "name": "Bulk charging voltage",
      "bytes": 2,
      "description": "24V: 250-315, 48V: 480-610; Default: 28.2V/56.4V. Set Battery Type to User before",
      "scale": 0.1
    },
    {
      "read_address": 4547,
      "write_address": 5028,
      "name": "Floating charging voltage",
      "bytes": 2,
      "description": "24V: 250-315, 48V: 480-610; Default: 27.0V/54.0V. Set Battery Type to User before",
      "scale": 0.1
    },
    {
      "read_address": 4548,
      "write_address": 5029,
      "name": "Low DC cut-off Voltage",
      "bytes": 2,
      "description": "24V: 200-240 (200=20.0V, default=21.0V); 48V: 400-480 (400=40.0V, default=42.0V).",
      "scale": 0.1
    },
    {
      "read_address": 4549,
      "write_address": 5030,
      "name": "Battery Equalization voltage",
      "bytes": 2,
      "description": "24V: 250-315 (default=29.2V); 48V: 480-610 (480=48.0V, default=58.4V).",
      "scale": 0.1
    },
    {
      "read_address": 4550,
      "write_address": 5031,
      "name": "Battery Equalized time",
      "bytes": 2,
      "description": "Range: 5-900 min (5 per level), default=60min"   
    },
    {
      "read_address": 4551,
      "write_address": 5032,
      "name": "Battery Equalized timeout",
      "bytes": 2,
      "description": "Range: 5-900 min (5 per level), default=120min" 
    },
    {
      "read_address": 4552,
      "write_address": 5033,
      "name": "Battery Equalization interval",
      "bytes": 2,
      "description": "Range: 0-90 days, default=30 days"
    },
    {
      "read_address": 4559,
      "write_address": 5034,
      "name": "GRID-tie operation",
      "bytes": 2,
      "description": "OFF: OFF-grid/default (00), HYD: Hybrid (01)",
      "commands": {
        "OFF": "05 06 13 AA 00 00 AC EA",
        "HYD": "05 06 13 AA 00 01 6D 2A"
      }
    },
    {
      "read_address": 4560,
      "write_address": 5035,
      "name": "GRID-tie current",
      "bytes": 2,
      "description": "Range: 2-30 A (step=2), default=10A"
    },
    {
      "read_address": 4561,
      "write_address": 5036,
      "name": "LED pattern light",
      "bytes": 2,
      "description": "0: Off, 1: On (default)",
      "commands": {
        "0": "05 06 13 AD 00 00 1D 2B",
        "1": "05 06 13 AD 00 01 DC EB"
      }
    },
    {
      "read_address": 4516,
      "write_address": 5037,
      "name": "Dual output",
      "bytes": 2,
      "description": "0: Disable/default (00), 1: Use (01)", 
      "commands": {
        "0": "05 06 13 AD 00 00 1D 2B",
        "1": "05 06 13 AD 00 01 DC EB"
      }
    },
    {
      "read_address": 4517,
      "write_address": 5038,
      "name": "Enter the dual output functional voltage point",
      "bytes": 2,
      "description": "24V: 200-230 (default=22.0V), 48V: 400-460 (default=44V)",
      "scale": 0.1
    },
    {
	  "read_address": 5002,
      "write_address": 5002,
      "name": "Buzzer alarm (buzzer settings)",
      "bytes": 2,
      "description": "0x0001: Enable, 0x0000: Disable",
      "commands": {
        "Disable": "05 06 13 8A 00 1E 2D 28",
        "Enable": "05 06 13 8A 01 1E 2C B8"
      }
    },
    {
	  "read_address": 5004,
      "write_address": 5004,
      "name": "LCD backlight",
      "bytes": 2,
      "description": "0x0001: Enable, 0x0000: Disable",
      "commands": {
        "Disable": "05 06 13 8C 00 1E CD 29",
        "Enable": "05 06 13 8C 01 1E CC B9"
      }
    },
    {
	  "read_address": 5005,
      "write_address": 5005,
      "name": "Overload auto restart (overload restart setting)",
      "bytes": 2,
      "description": "0x0001: Enable, 0x0000: Disable",
      "commands": {
        "Enable": "05 06 13 8D 01 1E 9D 79",
        "Disable": "05 06 13 8D 00 1E 9C E9"
      }
    },
    {
	  "read_address": 5006,
      "write_address": 5006,
      "name": "Over temperature auto restart (over temperature restart setting)",
      "bytes": 2,
      "description": "0x0001: Enable, 0x0000: Disable",
      "commands": {
        "Disable": "05 06 13 8E 00 1E 6C E9",
        "Enable": "05 06 13 8E 01 1E 6D 79"
      }
    },
    {
	  "read_address": 5007,
      "write_address": 5007,
      "name": "Beeps while primary source interrupt (high priority source access, buzzer prompt)",
      "bytes": 2,
      "description": "0x0001: Enable, 0x0000: Disable",
      "commands": {
        "Disable": "05 06 13 8F 00 1E 3D 29",
        "Enable": "05 06 13 8F 01 1E 3C B9"
      }
    },
    {
	  "read_address": 5008,
      "write_address": 5008,
      "name": "Auto return to default display screen (return to LCD main page)",
      "bytes": 2,
      "description": "0x0001: Enable, 0x0000: Disable",
      "commands": {
        "Disable": "05 06 13 90 00 3C 8C F6",
        "Enable": "05 06 13 90 01 3C 8D 66"
      }
    },
    {
	  "read_address": 5009,
      "write_address": 5009,
      "name": "Transfer to bypass @ overload",
      "bytes": 2,
      "description": "0x0001: Enable, 0x0000: Disable",
      "commands": {
        "Enable": "05 06 13 91 01 3C DC A6",
        "Disable": "05 06 13 91 00 3C DD 36"
      }
    },
    {
	  "read_address": 5010,
      "write_address": 5010,
      "name": "Record fault code",
      "bytes": 2,
      "description": "0x0001: Enable, 0x0000: Disable",
      "commands": {
        "Enable": "05 06 13 92 01 3C 2C A6",
        "Disable": "05 06 13 92 00 3C 2D 36"
      }
    },
    {
	  "read_address": 5011,
      "write_address": 5011,
      "name": "Battery Equalization",
      "bytes": 2,
      "description": "0x0001: Enable, 0x0000: Disable",
      "commands": {
		  "Enable": "05 06 13 93 01 3C 7D 66",
		  "Disable": "05 06 13 93 00 3C 7C F6"
	  }
    },
    {
	  "read_address": 5012,
      "write_address": 5012,
      "name": "Battery Equalization activated immediately",
      "bytes": 2,
      "description": "0x0001: Enable, 0x0000: Disable",
      "commands": {
		  "Disable": "05 06 13 94 00 3C 7C F6"
	  }
    },
    {
	  "read_address": 5016,
      "write_address": 5016,
      "name": "Restore Defaults (restore all settings in one click)",
      "bytes": 2,
      "description": "0x0001: Enable, 0x0000: Disable",
      "commands": {
		  "Enable": "05 06 13 98 00 01 CC E5", 
		  "Disable": "05 06 13 98 00 00 8D 25"
	  }
    }
  ]
}