{
  "registers": [
    {
      "read_address": 4536,
      "write_address": 5017,
      "name": "Charger source priority",
      "bytes": 2,
      "description": "1: Utility or Solar (default), 2: Solar only, 3: Solar ",
      "commands": {
        "default": "05 06 13 99 00 01 9D 25",
        "Solar only": "05 06 13 99 00 02 DD 24",
        "Solar": "05 06 13 99 00 03 1C E4"
      }
    },
    {
      "read_address": 4537,
      "write_address": 5018,
      "name": "Output Source priority",
      "bytes": 2,
      "description": "0: Utilty (default), 1: Solar, 2: SBU ",
      "commands": {
        "default": "05 06 13 9A 00 00 AC E5",
        "Solar": "05 06 13 9A 00 01 6D 25",
        "SBU": "05 06 13 9A 00 02 2D 24"
      }
    },
    {
      "read_address": 4538,
      "write_address": 5019,
      "name": "AC input range",
      "bytes": 2,
      "description": "0: Appliance (default), 1: UPS ",
      "commands": {
        "default": "05 06 13 9B 00 00 FD 25",
        "UPS": "05 06 13 9B 00 01 3C E5"
      }
    },
    {
      "read_address": 4539,
      "write_address": 5020,
      "name": "Battery type",
      "bytes": 2,
      "description": "0: AGM (default), 1: Flooded, 2: User 3: LIB ",
      "commands": {
        "default": "05 06 13 9C 00 00 4C E4",
        "Flooded": "05 06 13 9C 00 01 8D 24",
        "User": "05 06 13 9C 00 02 CD 25",
        "LIB": "05 06 13 9C 00 03 68 A7"
      }
    },
    {
      "read_address": 4540,
      "write_address": 5021,
      "name": "Output Frequency",
      "bytes": 2,
      "description": "0: 50 (default), 1: 60 ",
      "commands": {
        "0": "05 06 13 9D 00 01 DC E4",
        "1": "05 06 13 9D 00 00 1D 24"
      }
    },
    {
      "read_address": 4541,
      "write_address": 5022,
      "name": "Max total charge current",
      "bytes": 2,
      "description": "10-120 (A), Default: 60A",
      "commands": {
        "10": "05 06 13 9E 00 0A 6D 23",
		"20": "05 06 13 9E 00 14 ED 2B",
		"30": "05 06 13 9E 00 1E 6D 2C",
		"40": "05 06 13 9E 00 28 ED 3A",
		"50": "05 06 13 9E 00 32 6C F1",
		"60": "05 06 13 9E 00 3C ED 35",
		"70": "05 06 13 9E 00 46 6C D6",
		"80": "05 06 13 9E 00 50 ED 18",
		"90": "05 06 13 9E 00 5A 6C D2",
		"100": "05 06 13 9E 00 64 EC 60",
		"110": "05 06 13 9E 00 6E 6C C6",
		"120": "05 06 13 9E 00 78 EC 50"
      }
    },
    {
      "read_address": 4542,
      "write_address": 5023,
      "name": "Output voltage",
      "bytes": 2,
      "description": "220/230 (default)/240 V.",
      "commands": {
        "220": "05 06 13 9F 00 DC BD 7D",
        "230": "05 06 13 9F 00 E6 3D 6E",
        "240": "05 06 13 9F 00 F0 BC A0"
      }
    },
    {
      "read_address": 4543,
      "write_address": 5024,
      "name": "Max utility charge current",
      "bytes": 2,
      "description": "2-100 (A), Default: 30A."
    },
    {
      "read_address": 4544,
      "write_address": 5025,
      "name": "Comeback utility mode voltage (SBU)",
      "bytes": 2,
      "description": "24V Battery: 210-255 (21.0V-25.5V); 48V Battery: 420-510 (42.0V-51.0V); Default: 230 (24V) / 460 (48V)",
      "commands": {
        "210": "05 06 13 A1 00 D2 DC D6",
		"220": "05 06 13 A1 00 DC 5C D0",
		"230": "05 06 13 A1 00 E6 DC E1",
		"240": "05 06 13 A1 00 F0 5C E7",
		"250": "05 06 13 A1 00 FA DC F0",
		"260": "05 06 13 A1 01 04 5D 05",
		"270": "05 06 13 A1 01 0E DD 0B",
		"280": "05 06 13 A1 01 18 5D 12",
		"290": "05 06 13 A1 01 22 DD 1A",
		"300": "05 06 13 A1 01 2C 5D 27",
		"310": "05 06 13 A1 01 36 DD 3C",
		"320": "05 06 13 A1 01 40 5D 3F",
		"330": "05 06 13 A1 01 4A DD 4D",
		"340": "05 06 13 A1 01 54 5D 5B",
		"350": "05 06 13 A1 01 5E DD 63",
		"360": "05 06 13 A1 01 68 5D 70",
		"370": "05 06 13 A1 01 72 DD 78",
		"380": "05 06 13 A1 01 7C 5D 86",
		"390": "05 06 13 A1 01 86 DD 9C",
		"400": "05 06 13 A1 01 90 5D 99",
		"410": "05 06 13 A1 01 9A DD B1",
		"420": "05 06 13 A1 01 A4 5D A5",
		"430": "05 06 13 A1 01 AE DD B7",
		"440": "05 06 13 A1 01 B8 5D C3",
		"450": "05 06 13 A1 01 C2 5D 29",
		"460": "05 06 13 A1 01 CC DC ED",
		"470": "05 06 13 A1 01 D6 5D 26",
		"480": "05 06 13 A1 01 E0 DD 30",
		"490": "05 06 13 A1 01 EA 5D 37",
		"500": "05 06 13 A1 01 F4 DD 3F",
		"510": "05 06 13 A1 01 FE 5D 44",
		"520": "05 06 13 A1 02 08 DD 4A",
		"530": "05 06 13 A1 02 12 5D 5B"
      }
    },
    {
      "read_address": 4545,
      "write_address": 5026,
      "name": "Comeback battery mode voltage (SBU)",
      "bytes": 2,
      "description": "24V: 240-290, 48V: 480-600; 0 indicates float charge entry",
      "commands": {
        "0": "05 06 13 A2 00 00 2D 28",
        "480": "05 06 13 A2 01 E0 2D 30",
        "500": "05 06 13 A2 01 F4 2D 3F",
        "540": "05 06 13 A2 02 1C 2D 81",
        "600": "05 86 83 42"
      }
    },
    {
      "read_address": 4546,
      "write_address": 5027,
      "name": "Bulk charging voltage",
      "bytes": 2,
      "description": "24V: 250-315, 48V: 480-610; Default: 28.2V/56.4V. Set Battery Type to User before",
      "commands": {
        "480": "05 06 13 A3 01 E0 7C F0",
        "500": "05 06 13 A3 01 F4 7C FF",
        "564": "05 06 13 A3 02 34 7C 5F",
        "610": "05 06 13 A3 02 62 FC 61"
      }
    },
    {
      "read_address": 4547,
      "write_address": 5028,
      "name": "Floating charging voltage",
      "bytes": 2,
      "description": "24V: 250-315, 48V: 480-610; Default: 27.0V/54.0V. Set Battery Type to User before",
      "commands": {
        "480": "05 06 13 A4 01 E0 CD 31",
        "500": "05 06 13 A4 01 F4 CD 3E",
        "540": "05 06 13 A4 02 1C CD 80",
        "610": "05 06 13 A4 02 62 4D A0"
      }
    },
    {
      "read_address": 4548,
      "write_address": 5029,
      "name": "Low Battery cut-off voltage",
      "bytes": 2,
      "description": "24V: 200-240 (200=20.0V, default=21.0V); 48V: 400-480 (400=40.0V, default=42.0V). Other values are illegal.",
      "commands": {
        "200": "05 06 13 A5 01 90 9D 15",
        "210": "05 06 13 A5 01 9A 1D 12",
        "220": "05 06 13 A5 01 A4 9C C2"
      }
    },
    {
      "read_address": 4549,
      "write_address": 5030,
      "name": "Battery Equalization voltage",
      "bytes": 2,
      "description": "24V: 250-315 (default=29.2V); 48V: 480-610 (480=48.0V, default=58.4V). Other values are illegal.",
      "commands": {
        "480": "05 06 13 A6 01 E0 6C F1",
        "500": "05 06 13 A6 01 F4 6C FE",
        "552": "05 06 13 A6 02 28 6D 8F",
        "610": "05 06 13 A6 02 62 EC 60"
      }
    },
    {
      "read_address": 4550,
      "write_address": 5031,
      "name": "Battery Equalized time",
      "bytes": 2,
      "description": "Range: 5-900 min (5 per level), default=60min",
      "commands": {
        "5": "05 06 13 A7 00 05 FD 2A",
        "25": "05 06 13 A7 00 19 FC E3",
        "50": "05 06 13 A7 00 32 BC FC",
        "60": "05 06 13 A7 00 3C 3D 38",
        "70": "05 06 13 A7 00 46 BC DB",
        "90": "05 06 13 A7 00 5A BD 12",
        "95": "05 06 13 A7 00 5F 7D 11",
        "100": "05 06 13 A7 00 64 3C C2",
        "200": "05 06 13 A7 00 C8 3C BF",
        "300": "05 06 13 A7 01 2C 3D 64",
        "900": "05 06 13 A7 03 84 3D BA"
      }
    },
    {
      "read_address": 4551,
      "write_address": 5032,
      "name": "Battery Equalized timeout",
      "bytes": 2,
      "description": "Range: 5-900 min (5 per level), default=120min",
      "commands": {
        "5": "05 06 13 A8 00 05 CD 29",
        "25": "05 06 13 A8 00 19 CC E0",
        "50": "05 06 13 A8 00 32 8C FF",
        "60": "05 06 13 A8 00 3C 0D 3B",
        "70": "05 06 13 A8 00 46 8C D8",
        "90": "05 06 13 A8 00 5A 8D 11",
        "95": "05 06 13 A8 00 5F 4D 12",
        "100": "05 06 13 A8 00 64 0C C1",
        "120": "05 06 13 A8 00 78 0D 08",
        "200": "05 06 13 A8 00 C8 0C BC",
        "300": "05 06 13 A8 01 2C 0D 67",
        "900": "05 06 13 A8 03 84 0D B9"
      }
    },
    {
      "read_address": 4552,
      "write_address": 5033,
      "name": "Battery Equalization interval",
      "bytes": 2,
      "description": "Range: 0-90 days, default=30 days",
      "commands": {
        "5": "05 06 13 A9 00 05 9C E9",
        "30": "05 06 13 A9 00 1E DC E2",
        "50": "05 06 13 A9 00 32 DD 3F",
        "60": "05 06 13 A9 00 3C 5C FB",
        "70": "05 06 13 A9 00 46 DD 18",
        "90": "05 06 13 A9 00 5A DC D1"
      }
    },
    {
      "read_address": 4559,
      "write_address": 5034,
      "name": "GRID-tie operation",
      "bytes": 2,
      "description": "0: OFF (default), 1: On, others illegal",
      "commands": {
        "0": "05 06 13 AA 00 00 AC EA",
        "1": "05 06 13 AA 00 01 6D 2A"
      }
    },
    {
      "read_address": 4560,
      "write_address": 5035,
      "name": "GRID-tie current",
      "bytes": 2,
      "description": "Range: 2-30 A (step=2), default=10A",
      "commands": {
        "2": "05 06 13 AB 00 02 7C EB",
        "4": "05 06 13 AB 00 04 FC E9",
        "6": "05 06 13 AB 00 06 7D 28",
        "8": "05 06 13 AB 00 08 FC EC",
        "10": "05 06 13 AB 00 0A 7D 2D",
        "12": "05 06 13 AB 00 0C FD 2F",
        "14": "05 06 13 AB 00 0E 7C EE",
        "16": "05 06 13 AB 00 10 FC E6"
      }
    },
    {
      "read_address": 4561,
      "write_address": 5036,
      "name": "LED pattern light",
      "bytes": 2,
      "description": "0: Off, 1: On (default), others illegal",
      "commands": {
        "0": "05 06 13 AD 00 00 1D 2B",
        "1": "05 06 13 AD 00 01 DC EB"
      }
    },
    {
      "read_address": 4516,
      "write_address": 5037,
      "name": "Dual output",
      "bytes": 2,
      "description": "0: Disable (default), 1: Use, others illegal",
      "commands": {
        "0": "05 06 13 AD 00 00 1D 2B",
        "1": "05 06 13 AD 00 01 DC EB"
      }
    },
    {
      "read_address": 4517,
      "write_address": 5038,
      "name": "Enter the dual output functional voltage point",
      "bytes": 2,
      "description": "24V: 200-230 (default=22.0V), 48V: 400-460 (default=44V); others illegal",
      "commands": {
        "420": "05 06 13 AE 01 A4 00 ED",
        "440": "05 06 13 AE 01 B8 EC C9",
        "450": "05 06 13 AE 01 C2 6D 2A",
        "460": "05 06 13 AE 01 CC DC ED"
      }
    },
    {
	  "read_address": 5002,
      "write_address": 5002,
      "name": "Buzzer alarm (buzzer settings)",
      "bytes": 2,
      "description": "0x0001: Enable, 0x0000: Disable",
      "commands": {
        "Disable": "05 06 13 8A 00 1E 2D 28",
        "Enable": "05 06 13 8A 01 1E 2C B8"
      }
    },
    {
	  "read_address": 5004,
      "write_address": 5004,
      "name": "LCD backlight",
      "bytes": 2,
      "description": "0x0001: Enable, 0x0000: Disable",
      "commands": {
        "Disable": "05 06 13 8C 00 1E CD 29",
        "Enable": "05 06 13 8C 01 1E CC B9"
      }
    },
    {
	  "read_address": 5005,
      "write_address": 5005,
      "name": "Overload auto restart (overload restart setting)",
      "bytes": 2,
      "description": "0x0001: Enable, 0x0000: Disable",
      "commands": {
        "Enable": "05 06 13 8D 01 1E 9D 79",
        "Disable": "05 06 13 8D 00 1E 9C E9"
      }
    },
    {
	  "read_address": 5006,
      "write_address": 5006,
      "name": "Over temperature auto restart (over temperature restart setting)",
      "bytes": 2,
      "description": "0x0001: Enable, 0x0000: Disable",
      "commands": {
        "Disable": "05 06 13 8E 00 1E 6C E9",
        "Enable": "05 06 13 8E 01 1E 6D 79"
      }
    },
    {
	  "read_address": 5007,
      "write_address": 5007,
      "name": "Beeps while primary source interrupt (high priority source access, buzzer prompt)",
      "bytes": 2,
      "description": "0x0001: Enable, 0x0000: Disable",
      "commands": {
        "Disable": "05 06 13 8F 00 1E 3D 29",
        "Enable": "05 06 13 8F 01 1E 3C B9"
      }
    },
    {
	  "read_address": 5008,
      "write_address": 5008,
      "name": "Auto return to default display screen (return to LCD main page)",
      "bytes": 2,
      "description": "0x0001: Enable, 0x0000: Disable",
      "commands": {
        "Disable": "05 06 13 90 00 3C 8C F6",
        "Enable": "05 06 13 90 01 3C 8D 66"
      }
    },
    {
	  "read_address": 5009,
      "write_address": 5009,
      "name": "Transfer to bypass @ overload",
      "bytes": 2,
      "description": "0x0001: Enable, 0x0000: Disable",
      "commands": {
        "Enable": "05 06 13 91 01 3C DC A6",
        "Disable": "05 06 13 91 00 3C DD 36"
      }
    },
    {
	  "read_address": 5010,
      "write_address": 5010,
      "name": "Record fault code",
      "bytes": 2,
      "description": "0x0001: Enable, 0x0000: Disable",
      "commands": {
        "Enable": "05 06 13 92 01 3C 2C A6",
        "Disable": "05 06 13 92 00 3C 2D 36"
      }
    },
    {
	  "read_address": 5011,
      "write_address": 5011,
      "name": "Battery Equalization",
      "bytes": 2,
      "description": "0x0001: Enable, 0x0000: Disable",
      "commands": {
		  "Enable": "05 06 13 93 01 3C 7D 66",
		  "Disable": "05 06 13 93 00 3C 7C F6"
	  }
    },
    {
	  "read_address": 5012,
      "write_address": 5012,
      "name": "Battery Equalization activated immediately",
      "bytes": 2,
      "description": "0x0001: Enable, 0x0000: Disable",
      "commands": {
		  "Disable": "05 06 13 94 00 3C 7C F6"
	  }
    },
    {
	  "read_address": 5016,
      "write_address": 5016,
      "name": "Restore Defaults (restore all settings in one click)",
      "bytes": 2,
      "description": "0x0001: Enable, 0x0000: Disable",
      "commands": {
		  "Enable": "05 06 13 98 00 01 CC E5", 
		  "Disable": "05 06 13 98 00 00 8D 25"
	  }
    }
  ]
}